 ****** HSPICE -- P-2019.06-SP1-1 win64 (Sep 27 2019) ******                    
  Copyright (c) 1986 - 2024 by Synopsys, Inc. All Rights Reserved.              
  This software and the associated documentation are proprietary
  to Synopsys, Inc. This software may only be used in accordance
  with the terms and conditions of a written license agreement with
  Synopsys, Inc. All other use, reproduction, or distribution of
  this software is strictly prohibited.
  Input File: XOR_Layout.sp                                                     
  Command line options: C:\synopsys\Hspice_P-2019.06-SP1-1\WIN64\hspice.com -i XOR_Layout.sp -o C:\Users\IDEAL\Desktop\CA1\part 1\XOR_Layout.lis
  Start time: Thu Mar 28 19:10:53 2024
  lic:  
  lic: FLEXlm: SDK_12.3 
  lic: USER:   IDEAL                HOSTNAME: DESKTOP-VQ2IIPN 
  lic: HOSTID: 000c294610b7         PID:      3816 
  lic: Using FLEXlm license file: 
  lic: 27000@DESKTOP-VQ2IIPN 
  lic: Checkout 1 hspice 
  lic: License/Maintenance for hspice will expire on 30-dec-2030/2030.12 
  lic: 1(in_use)/99(total) FLOATING license(s) on SERVER 27000@DESKTOP-VQ2IIPN 
  lic:   
1****** HSPICE -- P-2019.06-SP1-1 win64 (Sep 27 2019) ******                    
 ******  
 * circuit extracted by tanner research's l-edit version 8.30 / extract version 8.30 ;

 ****** mos   model parameters tnom=  25.000 temp=  25.000 ******
 ***************************************************************************
 ***        model parameters  model name:   0:nmos     model type:nmos   ***
 ***************************************************************************

   *** general parameters ***
    deriv=   0.           

   ***  level 49  model parameters  ***

       hspver=    2006.03               level=         49         
      version=        3.1            paramchk=          0         
       apwarn=          1                lite=          0         
       vgslim=          0             binUnit=          1         
       capMod=          2               xpart=        0.5         
       mobMod=          1              nqsMod=          0         
       stiMod=          0                 elm=          5         
     sfvtflag=          0                 tox=    9.3e-09 meter   
           xj=    1.5e-07 meter       binflag=          0         
         lmin=          0 meter          lmax=          0 meter   
         wmin=          0 meter          wmax=          0 meter   
         lref=          0 meter          wref=          0 meter   
         lint=8.64501e-08 meter          wint=8.85649e-08 meter   
        lmult=          1               wmult=          1         
           ll=          0                 lln=          1         
           lw=          0                 lwn=          1         
          lwl=          0                  wl=          0         
          wln=          1                  ww=          0         
          wwn=          1                 wwl=          0         
          dwg=-2.5651e-09 m/V             dwb=2.37837e-10 m/V^1/2 
           xl=          0                  xw=          0         
           a0=    1.05158                 ags=   0.101818 V^-1    
           b0=-1.61634e-07 meter            b1=1.82555e-07 meter   
         keta=  -0.012541 V^-1           voff=      -0.15 V       
        ngate=          0 cm^-3           vbx=          0 V       
          vbm=         -3 V                xt=   1.55e-07 meter   
         vth0=    0.55993 V               nch=    1.7e+17 cm^-3   
         nsub=      6e+16 cm^-3           nlx=1.48918e-07 meter   
       gamma1=          0 V^-1/2       gamma2=          0 V^-1/2  
           k1=   0.862703 V^1/2            k2= -0.0608508         
           k3=-0.00555508                 k3b=    1.03958 V^-1    
           w0=      1e-08 meter          dvt0=   0.661298         
         dvt1=   0.307353                dvt2=  -0.319509 V^-1    
        dvt0w=          0 meter^-1      dvt1w=          0 meter^-1
        dvt2w=          0 V^-1           dsub=   0.619509         
         eta0=   0.118493                etab= -0.0174234 V^-1    
           u0=     444.36 cm^2/V/sec         ua=      1e-13 m/V     
           ub=1.82328e-18 (m/V)^2          uc=4.48335e-11 V^-1    
         vsat=     186331 m/sec            a1=          0 v^-1    
           a2=   0.762785               delta=       0.01 V       
         rdsw=    682.357 ohm-um         prwg=1.58027e-14 V^-1    
         prwb=  -0.121457 V^-1/2           wr=          1         
         pclm=   0.579149             pdiblc1= 0.00138403         
      pdiblc2= 0.00609229             pdiblcb= -0.0496297 V^-1    
       pscbe1=3.17234e+08 V/m          pscbe2=2.44807e-06 V/m     
        drout=  0.0486172                pvag=    0.43403         
      nfactor=        2.5                cdsc=    0.00024 f/m^2   
        cdscb=          0 f/V/m^2       cdscd=          0 f/V/m^2 
          cit=          0 f/m^2        alpha0=          0 m/V     
        beta0=         30 V               dlc=8.64501e-08 meter   
          dwc=8.85649e-08 meter           clc=      1e-07 meter   
          cle=        0.6                cgso=   3.97e-10 f/m     
         cgdo=   3.97e-10 f/m            cgbo=      6e-09 f/m     
         cgsl=          0 f/m            cgdl=          0 f/m     
       ckappa=        0.6                  cf=          0 f/m     
         tnom=     300.15 K               kt1=      -0.11 V       
         kt1l=          0                 kt2=      0.022         
          ute=       -1.5                 ua1=   4.31e-09 m/V     
          ub1=  -7.61e-18 (m/V)^2         uc1=   -5.6e-11 m/V^2   
           at=      33000 m/s             prt=          0         
          using Berkeley noise model       noiMod=          1         
         noia=      1e+20                noib=      50000         
         noic=   -1.4e-12                  em=    4.1e+07         
           ef=          1                  af=          1         
           kf=          0              gdsnoi=-1.23457e-29         
          using Hspice diodes            using ACM 
          acm=         0                 hdif=         0 meter    
         ldif=         0 meter             js=         0 amp/m^2  
          jsw=         0 amp/m            xti=         0          
            n=         1                   cj=0.000871324 f/m^2    
           mj=  0.379795                   pb=       0.8 V        
         cjsw=     1e-12 f/m             mjsw=      0.91          
          php=       0.8 V               pbsw (not used)           
       cjgate=     1e-12 f/m            cjswg (not used)           
        mjswg (not used)                 pbswg (not used)           
        lketa=0.000682613               wketa=0.000722657         
        pvth0=  0.0126432                 pk2=-0.00758209         
        prdsw=   -49.5154         
 ***************************************************************************
 ***        model parameters  model name:   0:pmos     model type:pmos   ***
 ***************************************************************************

   *** general parameters ***
    deriv=   0.           

   ***  level 49  model parameters  ***

       hspver=    2006.03               level=         49         
      version=        3.1            paramchk=          0         
       apwarn=          1                lite=          0         
       vgslim=          0             binUnit=          1         
       capMod=          2               xpart=        0.5         
       mobMod=          1              nqsMod=          0         
       stiMod=          0                 elm=          5         
     sfvtflag=          0                 tox=    9.3e-09 meter   
           xj=    1.5e-07 meter       binflag=          0         
         lmin=          0 meter          lmax=          0 meter   
         wmin=          0 meter          wmax=          0 meter   
         lref=          0 meter          wref=          0 meter   
         lint=1.07987e-07 meter          wint=7.32854e-08 meter   
        lmult=          1               wmult=          1         
           ll=          0                 lln=          1         
           lw=          0                 lwn=          1         
          lwl=          0                  wl=          0         
          wln=          1                  ww=          0         
          wwn=          1                 wwl=          0         
          dwg=-2.03555e-09 m/V             dwb=1.17286e-08 m/V^1/2 
           xl=          0                  xw=          0         
           a0=   0.641853                 ags=   0.183955 V^-1    
           b0= 1.4818e-06 meter            b1=      5e-06 meter   
         keta= -0.0257963 V^-1           voff= -0.0361606 V       
        ngate=          0 cm^-3           vbx=          0 V       
          vbm=         -3 V                xt=   1.55e-07 meter   
         vth0=  -0.512028 V               nch=    1.7e+17 cm^-3   
         nsub=      6e+16 cm^-3           nlx= 1.6946e-09 meter   
       gamma1=          0 V^-1/2       gamma2=          0 V^-1/2  
           k1=   0.879838 V^1/2            k2=       -0.1         
           k3=   0.814884                 k3b=    3.41481 V^-1    
           w0=      1e-08 meter          dvt0=      1.134         
         dvt1=   0.438841                dvt2=       -0.3 V^-1    
        dvt0w=          0 meter^-1      dvt1w=          0 meter^-1
        dvt2w=          0 V^-1           dsub=   0.871782         
         eta0=0.000645122                etab= -0.0541124 V^-1    
           u0=    129.344 cm^2/V/sec         ua=1.35316e-09 m/V     
           ub=      1e-21 (m/V)^2          uc=-2.14315e-11 V^-1    
         vsat=     200000 m/sec            a1= 0.00016189 v^-1    
           a2=        0.3               delta=       0.01 V       
         rdsw=       3000 ohm-um         prwg= -0.0585481 V^-1    
         prwb=  -0.147946 V^-1/2           wr=          1         
         pclm=     1.4382             pdiblc1=  0.0485856         
      pdiblc2= 0.00406821             pdiblcb=       -0.1 V^-1    
       pscbe1=7.93093e+09 V/m          pscbe2= 5.9328e-10 V/m     
        drout=   0.318221                pvag=  0.0150916         
      nfactor=   0.875319                cdsc=    0.00024 f/m^2   
        cdscb=          0 f/V/m^2       cdscd=          0 f/V/m^2 
          cit=          0 f/m^2        alpha0=          0 m/V     
        beta0=         30 V               dlc=1.07987e-07 meter   
          dwc=7.32854e-08 meter           clc=      1e-07 meter   
          cle=        0.6                cgso=   4.06e-10 f/m     
         cgdo=   4.06e-10 f/m            cgbo=      6e-09 f/m     
         cgsl=          0 f/m            cgdl=          0 f/m     
       ckappa=        0.6                  cf=          0 f/m     
         tnom=     300.15 K               kt1=      -0.11 V       
         kt1l=          0                 kt2=      0.022         
          ute=       -1.5                 ua1=   4.31e-09 m/V     
          ub1=  -7.61e-18 (m/V)^2         uc1=   -5.6e-11 m/V^2   
           at=      33000 m/s             prt=          0         
          using Berkeley noise model       noiMod=          1         
         noia=    9.9e+18                noib=       2400         
         noic=    1.4e-12                  em=    4.1e+07         
           ef=          1                  af=          1         
           kf=          0              gdsnoi=-1.23457e-29         
          using Hspice diodes            using ACM 
          acm=         0                 hdif=         0 meter    
         ldif=         0 meter             js=         0 amp/m^2  
          jsw=         0 amp/m            xti=         0          
            n=         1                   cj=0.000881802 f/m^2    
           mj=  0.222517                   pb=  0.717311 V        
         cjsw=     8e-13 f/m             mjsw=     0.999          
          php=  0.717311 V               pbsw (not used)           
       cjgate=     8e-13 f/m            cjswg (not used)           
        mjswg (not used)                 pbswg (not used)           
        lketa=-0.000138102               wketa=0.000468986         
        pvth0= 0.00598016                 pk2= 0.00373981         
        prdsw=    14.8598         
  **info** (XOR_Layout.sp:95) DC voltage reset to initial transient source value in source 0:vpulse_a. new dc=0.0000D+00
  **warning** (XOR_Layout.sp:60) Both nodes of element cpar2 are connected together; Line ignored.
 

  
      
 **info** set option symb=1 internally to help for convergence.
 *****************************************************************
 ******  option summary
 ******
 runlvl  = 3         bypass  = 2.0000    
 **info** dc convergence successful at Newton-Raphson method 
 ******  
 * circuit extracted by tanner research's l-edit version 8.30 / extract version 8.30 ;

 ****** operating point information tnom=  25.000 temp=  25.000 ******
 ****** operating point status is all       simulation time is     0.     
    node    =voltage      node    =voltage      node    =voltage

 +0:4       =   5.0000  0:8       =  16.4641n 0:9       =   4.0126 
 +0:a       =   0.      0:b       =   5.0000  0:out     =   5.0000 
 +0:vdd     =   5.0000  0:~a      =   5.0000  0:~b      =   0.     


 **** voltage sources

 subckt                                                         
 element  0:vcc      0:vpulse_a 0:vpulse_a 0:vpulse_b 0:vpulse_b
  volts      5.0000     0.         5.0000     5.0000     0.     
  current  -48.1783p    0.         0.         0.         0.     
  power    240.8914p    0.         0.         0.         0.     

     total voltage source power dissipation=  240.8914p       watts




 **** mosfets


 subckt                                                                    
 element  0:m1       0:m2       0:m3       0:m4       0:m5       0:m6      
 model    0:pmos     0:pmos     0:pmos     0:pmos     0:nmos     0:nmos    
 region   Linear     Cutoff     Linear     Cutoff     Cutoff     Linear    
  id       -48.1783p -8.738e-20  -48.1783p -8.737e-20   -9.9636p  -16.1769p
  ibs        0.         0.         0.         0.         0.         0.     
  ibd        0.         0.         0.         0.         0.         0.     
  vgs       -5.0000     0.        -5.0000   173.9958n   -4.0126     5.0000 
  vds     -173.9958n -173.9958n -173.9958n -173.9958n   -4.0126   -16.4641n
  vbs        0.         0.       173.9958n  173.9958n   -4.0126   -16.4641n
  vth     -513.6963m -513.6963m -513.6964m -513.6964m  586.4682m  586.4683m
  vdsat     -3.5648   -38.1081m   -3.5648   -38.1081m   35.6212m    3.0914 
  vod       -4.4863   513.6963m   -4.4863   513.6966m -586.4682m    4.4135 
  beta      69.1517u  108.3923u   69.1517u  108.3923u  406.3595u  252.3357u
  gam eff    1.0628     1.0628     1.0628     1.0628   975.4034m  975.4034m
  gm         6.5127p    2.6052a    6.5127p    2.6052a  206.6102p    1.2065p
  gds      276.8934u  502.1672f  276.8933u  502.1634f  967.6824f  982.5553u
  gmb        4.9445p    1.1555a    4.9445p    1.1555a  107.5577p    1.8074p
  cdtot     55.8726f   36.7411f   55.8726f   36.7411f   46.6983f   61.4114f
  cgtot     68.1184f   37.7620f   68.1184f   37.7620f   38.5174f   68.9187f
  cstot     51.7437f   36.7411f   51.7437f   36.7411f    9.5825f   37.3600f
  cbtot    106.2180f  103.6939f  106.2180f  103.6939f   86.7696f   96.3535f
  cgs       22.2302f  420.6970a   22.2302f  420.6970a    2.3117f   27.2808f
  cgd       27.0265f    2.3765f   27.0265f    2.3765f    1.0936f   24.5183f



 subckt                        
 element  0:m7       0:m8      
 model    0:nmos     0:nmos    
 region   Cutoff     Cutoff    
  id       -11.1769p  -21.0323p
  ibs        0.         0.     
  ibd        0.         0.     
  vgs       -5.0000   347.9915n
  vds       -5.0000  -987.4164m
  vbs       -5.0000    -5.0000 
  vth      586.4682m    1.4284 
  vdsat     35.6212m   45.7560m
  vod     -586.4682m -440.9989m
  beta     406.3595u  374.8565u
  gam eff  975.4034m    1.1333 
  gm       231.7704p  591.2138p
  gds        1.5334p    1.4500p
  gmb      120.6886p   77.9112p
  cdtot     16.6743f    9.5826f
  cgtot     38.5174f   27.1230f
  cstot     18.3213f   18.3213f
  cbtot     65.4842f   46.3713f
  cgs        2.3117f    2.3117f
  cgd        1.0936f    1.7206f



 ******
 * circuit extracted by tanner research's l-edit version 8.30 / extract version 8.30 ;

 ****** transient analysis tnom=  25.000 temp=  25.000 ******
 power_avg=  42.7625u  from=   0.             to= 160.0000n

          ***** job concluded
 ******  
 * circuit extracted by tanner research's l-edit version 8.30 / extract version 8.30 ;

 ****** job statistics summary tnom=  25.000 temp=  25.000 ******

  ******  HSPICE Threads Information  ******

  Command Line Threads Count :     1
  Available CPU Count        :     2
  Actual Threads Count       :     1


  ******  Circuit Statistics  ******
  # nodes       =      10 # elements   =      20
  # resistors   =       0 # capacitors =       7 # inductors   =       0
  # mutual_inds =       0 # vccs       =       0 # vcvs        =       0
  # cccs        =       0 # ccvs       =       0 # volt_srcs   =       5
  # curr_srcs   =       0 # diodes     =       0 # bjts        =       0
  # jfets       =       0 # mosfets    =       8 # U elements  =       0
  # T elements  =       0 # W elements =       0 # B elements  =       0
  # S elements  =       0 # P elements =       0 # va device   =       0
  # vector_srcs =       0 # N elements =       0


  ******  Runtime Statistics (seconds)  ******

  analysis           time    # points   tot. iter  conv.iter
  op point           0.00           1          20
  transient          0.07        2001        5236        1998 rev=       120
  readin             0.01
  errchk             0.00
  setup              0.00
  output             0.00


           peak memory used         60.97 megabytes
           total cpu time            0.09 seconds
           total elapsed time        0.11 seconds
           job started at     19:10:53 03/28/2024
           job ended   at     19:10:53 03/28/2024
           job total runtime         0.11 seconds


  lic: Release hspice token(s) 
 lic: total license checkout elapse time:        0.02(s)
